v2	I(R2)	
0.00E+00	-4.38E-05	4.36E-03
5.00E-02	3.22E-04	1.79E-02
1.00E-01	7.22E-04	2.80E-02
1.50E-01	1.14E-03	3.60E-02
2.00E-01	1.58E-03	4.27E-02
2.50E-01	2.02E-03	4.84E-02
3.00E-01	2.47E-03	5.35E-02
3.50E-01	2.93E-03	5.81E-02
4.00E-01	3.39E-03	6.23E-02
4.50E-01	3.85E-03	6.62E-02
5.00E-01	4.31E-03	6.98E-02
5.50E-01	4.78E-03	7.33E-02
6.00E-01	5.25E-03	7.66E-02
6.50E-01	5.72E-03	7.97E-02
7.00E-01	6.19E-03	8.28E-02
7.50E-01	6.66E-03	8.58E-02
8.00E-01	7.13E-03	8.86E-02
8.50E-01	7.61E-03	9.15E-02
9.00E-01	8.08E-03	9.43E-02
9.50E-01	8.56E-03	9.70E-02
1.00E+00	9.03E-03	9.97E-02
1.05E+00	9.50E-03	1.02E-01
1.10E+00	9.98E-03	1.05E-01
1.15E+00	1.05E-02	1.08E-01
1.20E+00	1.09E-02	1.11E-01
1.25E+00	1.14E-02	1.13E-01
1.30E+00	1.19E-02	1.16E-01
1.35E+00	1.23E-02	1.19E-01
1.40E+00	1.28E-02	1.22E-01
1.45E+00	1.33E-02	1.25E-01
1.50E+00	1.38E-02	1.28E-01
1.55E+00	1.42E-02	1.31E-01
1.60E+00	1.47E-02	1.34E-01
1.65E+00	1.52E-02	1.37E-01
1.70E+00	1.56E-02	1.41E-01
1.75E+00	1.61E-02	1.45E-01
1.80E+00	1.66E-02	1.49E-01
1.85E+00	1.70E-02	1.53E-01
1.90E+00	1.75E-02	1.58E-01
1.95E+00	1.79E-02	1.63E-01
2.00E+00	1.84E-02	1.70E-01
2.05E+00	1.88E-02	1.77E-01
2.10E+00	1.92E-02	1.86E-01
2.15E+00	1.96E-02	1.97E-01
2.20E+00	1.99E-02	2.12E-01
2.25E+00	2.02E-02	2.34E-01
2.30E+00	2.04E-02	2.68E-01
2.35E+00	2.05E-02	3.11E-01
2.40E+00	2.05E-02	3.58E-01
2.45E+00	2.05E-02	4.07E-01
2.50E+00	2.05E-02	4.55E-01
2.55E+00	2.05E-02	5.03E-01
2.60E+00	2.05E-02	5.52E-01
2.65E+00	2.06E-02	6.00E-01
2.70E+00	2.06E-02	6.48E-01
2.75E+00	2.06E-02	6.97E-01
2.80E+00	2.06E-02	7.45E-01
2.85E+00	2.06E-02	7.94E-01
2.90E+00	2.06E-02	8.42E-01
2.95E+00	2.07E-02	8.90E-01
3.00E+00	2.07E-02	9.39E-01
3.05E+00	2.07E-02	9.87E-01
3.10E+00	2.07E-02	1.04E+00
3.15E+00	2.07E-02	1.08E+00
3.20E+00	2.07E-02	1.13E+00
3.25E+00	2.08E-02	1.18E+00
3.30E+00	2.08E-02	1.23E+00
3.35E+00	2.08E-02	1.28E+00
3.40E+00	2.08E-02	1.33E+00
3.45E+00	2.08E-02	1.37E+00
3.50E+00	2.08E-02	1.42E+00
3.55E+00	2.09E-02	1.47E+00
3.60E+00	2.09E-02	1.52E+00
3.65E+00	2.09E-02	1.57E+00
3.70E+00	2.09E-02	1.62E+00
3.75E+00	2.09E-02	1.66E+00
3.80E+00	2.09E-02	1.71E+00
3.85E+00	2.10E-02	1.76E+00
3.90E+00	2.10E-02	1.81E+00
3.95E+00	2.10E-02	1.86E+00
4.00E+00	2.10E-02	1.91E+00
4.05E+00	2.10E-02	1.95E+00
4.10E+00	2.10E-02	2.00E+00
4.15E+00	2.10E-02	2.05E+00
4.20E+00	2.11E-02	2.10E+00
4.25E+00	2.11E-02	2.15E+00
4.30E+00	2.11E-02	2.20E+00
4.35E+00	2.11E-02	2.25E+00
4.40E+00	2.11E-02	2.29E+00
4.45E+00	2.11E-02	2.34E+00
4.50E+00	2.12E-02	2.39E+00
4.55E+00	2.12E-02	2.44E+00
4.60E+00	2.12E-02	2.49E+00
4.65E+00	2.12E-02	2.54E+00
4.70E+00	2.12E-02	2.58E+00
4.75E+00	2.12E-02	2.63E+00
4.80E+00	2.13E-02	2.68E+00
4.85E+00	2.13E-02	2.73E+00
4.90E+00	2.13E-02	2.78E+00
4.95E+00	2.13E-02	2.83E+00
5.00E+00	2.13E-02	2.87E+00
5.05E+00	2.13E-02	2.92E+00
5.10E+00	2.14E-02	2.97E+00
5.15E+00	2.14E-02	3.02E+00
5.20E+00	2.14E-02	3.07E+00
5.25E+00	2.14E-02	3.12E+00
5.30E+00	2.14E-02	3.16E+00
5.35E+00	2.14E-02	3.21E+00
5.40E+00	2.15E-02	3.26E+00
5.45E+00	2.15E-02	3.31E+00
5.50E+00	2.15E-02	3.36E+00
5.55E+00	2.15E-02	3.41E+00
5.60E+00	2.15E-02	3.45E+00
5.65E+00	2.15E-02	3.50E+00
5.70E+00	2.15E-02	3.55E+00
5.75E+00	2.16E-02	3.60E+00
5.80E+00	2.16E-02	3.65E+00
5.85E+00	2.16E-02	3.70E+00
5.90E+00	2.16E-02	3.75E+00
5.95E+00	2.16E-02	3.79E+00
6.00E+00	2.16E-02	3.84E+00
6.05E+00	2.17E-02	3.89E+00
6.10E+00	2.17E-02	3.94E+00
6.15E+00	2.17E-02	3.99E+00
6.20E+00	2.17E-02	4.04E+00
6.25E+00	2.17E-02	4.08E+00
6.30E+00	2.17E-02	4.13E+00
6.35E+00	2.18E-02	4.18E+00
6.40E+00	2.18E-02	4.23E+00
6.45E+00	2.18E-02	4.28E+00
6.50E+00	2.18E-02	4.33E+00
6.55E+00	2.18E-02	4.37E+00
6.60E+00	2.18E-02	4.42E+00
6.65E+00	2.19E-02	4.47E+00
6.70E+00	2.19E-02	4.52E+00
6.75E+00	2.19E-02	4.57E+00
6.80E+00	2.19E-02	4.62E+00
6.85E+00	2.19E-02	4.66E+00
6.90E+00	2.19E-02	4.71E+00
6.95E+00	2.20E-02	4.76E+00
7.00E+00	2.20E-02	4.81E+00
7.05E+00	2.20E-02	4.86E+00
7.10E+00	2.20E-02	4.91E+00
7.15E+00	2.20E-02	4.95E+00
7.20E+00	2.20E-02	5.00E+00
7.25E+00	2.21E-02	5.05E+00
7.30E+00	2.21E-02	5.10E+00
7.35E+00	2.21E-02	5.15E+00
7.40E+00	2.21E-02	5.20E+00
7.45E+00	2.21E-02	5.24E+00
7.50E+00	2.21E-02	5.29E+00
7.55E+00	2.21E-02	5.34E+00
7.60E+00	2.22E-02	5.39E+00
7.65E+00	2.22E-02	5.44E+00
7.70E+00	2.22E-02	5.49E+00
7.75E+00	2.22E-02	5.54E+00
7.80E+00	2.22E-02	5.58E+00
7.85E+00	2.22E-02	5.63E+00
7.90E+00	2.23E-02	5.68E+00
7.95E+00	2.23E-02	5.73E+00
8.00E+00	2.23E-02	5.78E+00
8.05E+00	2.23E-02	5.83E+00
8.10E+00	2.23E-02	5.87E+00
8.15E+00	2.23E-02	5.92E+00
8.20E+00	2.24E-02	5.97E+00
8.25E+00	2.24E-02	6.02E+00
8.30E+00	2.24E-02	6.07E+00
8.35E+00	2.24E-02	6.12E+00
8.40E+00	2.24E-02	6.16E+00
8.45E+00	2.24E-02	6.21E+00
8.50E+00	2.25E-02	6.26E+00
8.55E+00	2.25E-02	6.31E+00
8.60E+00	2.25E-02	6.36E+00
8.65E+00	2.25E-02	6.41E+00
8.70E+00	2.25E-02	6.45E+00
8.75E+00	2.25E-02	6.50E+00
8.80E+00	2.26E-02	6.55E+00
8.85E+00	2.26E-02	6.60E+00
8.90E+00	2.26E-02	6.65E+00
8.95E+00	2.26E-02	6.70E+00
9.00E+00	2.26E-02	6.74E+00
9.05E+00	2.26E-02	6.79E+00
9.10E+00	2.27E-02	6.84E+00
9.15E+00	2.27E-02	6.89E+00
9.20E+00	2.27E-02	6.94E+00
9.25E+00	2.27E-02	6.99E+00
9.30E+00	2.27E-02	7.04E+00
9.35E+00	2.27E-02	7.08E+00
9.40E+00	2.27E-02	7.13E+00
9.45E+00	2.28E-02	7.18E+00
9.50E+00	2.28E-02	7.23E+00
9.55E+00	2.28E-02	7.28E+00
9.60E+00	2.28E-02	7.33E+00
9.65E+00	2.28E-02	7.37E+00
9.70E+00	2.28E-02	7.42E+00
9.75E+00	2.29E-02	7.47E+00
9.80E+00	2.29E-02	7.52E+00
9.85E+00	2.29E-02	7.57E+00
9.90E+00	2.29E-02	7.62E+00
9.95E+00	2.29E-02	7.66E+00
1.00E+01	2.29E-02	7.71E+00
