v2	I(R2)	
0.00E+00	-3.69E-05	3.65E-03
5.00E-02	2.87E-04	2.16E-02
1.00E-01	6.62E-04	3.44E-02
1.50E-01	1.07E-03	4.43E-02
2.00E-01	1.49E-03	5.25E-02
2.50E-01	1.92E-03	5.95E-02
3.00E-01	2.37E-03	6.57E-02
3.50E-01	2.81E-03	7.13E-02
4.00E-01	3.27E-03	7.65E-02
4.50E-01	3.72E-03	8.14E-02
5.00E-01	4.18E-03	8.61E-02
5.50E-01	4.64E-03	9.05E-02
6.00E-01	5.10E-03	9.49E-02
6.50E-01	5.56E-03	9.91E-02
7.00E-01	6.03E-03	1.03E-01
7.50E-01	6.49E-03	1.07E-01
8.00E-01	6.95E-03	1.12E-01
8.50E-01	7.42E-03	1.16E-01
9.00E-01	7.88E-03	1.20E-01
9.50E-01	8.34E-03	1.24E-01
1.00E+00	8.80E-03	1.29E-01
1.05E+00	9.26E-03	1.33E-01
1.10E+00	9.72E-03	1.38E-01
1.15E+00	1.02E-02	1.43E-01
1.20E+00	1.06E-02	1.48E-01
1.25E+00	1.11E-02	1.54E-01
1.30E+00	1.15E-02	1.61E-01
1.35E+00	1.19E-02	1.69E-01
1.40E+00	1.23E-02	1.77E-01
1.45E+00	1.27E-02	1.88E-01
1.50E+00	1.31E-02	2.03E-01
1.55E+00	1.34E-02	2.24E-01
1.60E+00	1.36E-02	2.55E-01
1.65E+00	1.37E-02	2.97E-01
1.70E+00	1.37E-02	3.44E-01
1.75E+00	1.37E-02	3.93E-01
1.80E+00	1.37E-02	4.42E-01
1.85E+00	1.37E-02	4.91E-01
1.90E+00	1.37E-02	5.40E-01
1.95E+00	1.38E-02	5.88E-01
2.00E+00	1.38E-02	6.37E-01
2.05E+00	1.38E-02	6.86E-01
2.10E+00	1.38E-02	7.35E-01
2.15E+00	1.38E-02	7.84E-01
2.20E+00	1.38E-02	8.33E-01
2.25E+00	1.38E-02	8.82E-01
2.30E+00	1.38E-02	9.31E-01
2.35E+00	1.38E-02	9.80E-01
2.40E+00	1.39E-02	1.03E+00
2.45E+00	1.39E-02	1.08E+00
2.50E+00	1.39E-02	1.13E+00
2.55E+00	1.39E-02	1.18E+00
2.60E+00	1.39E-02	1.22E+00
2.65E+00	1.39E-02	1.27E+00
2.70E+00	1.39E-02	1.32E+00
2.75E+00	1.39E-02	1.37E+00
2.80E+00	1.39E-02	1.42E+00
2.85E+00	1.40E-02	1.47E+00
2.90E+00	1.40E-02	1.52E+00
2.95E+00	1.40E-02	1.57E+00
3.00E+00	1.40E-02	1.62E+00
3.05E+00	1.40E-02	1.66E+00
3.10E+00	1.40E-02	1.71E+00
3.15E+00	1.40E-02	1.76E+00
3.20E+00	1.40E-02	1.81E+00
3.25E+00	1.40E-02	1.86E+00
3.30E+00	1.40E-02	1.91E+00
3.35E+00	1.41E-02	1.96E+00
3.40E+00	1.41E-02	2.01E+00
3.45E+00	1.41E-02	2.06E+00
3.50E+00	1.41E-02	2.10E+00
3.55E+00	1.41E-02	2.15E+00
3.60E+00	1.41E-02	2.20E+00
3.65E+00	1.41E-02	2.25E+00
3.70E+00	1.41E-02	2.30E+00
3.75E+00	1.41E-02	2.35E+00
3.80E+00	1.42E-02	2.40E+00
3.85E+00	1.42E-02	2.45E+00
3.90E+00	1.42E-02	2.50E+00
3.95E+00	1.42E-02	2.55E+00
4.00E+00	1.42E-02	2.59E+00
4.05E+00	1.42E-02	2.64E+00
4.10E+00	1.42E-02	2.69E+00
4.15E+00	1.42E-02	2.74E+00
4.20E+00	1.42E-02	2.79E+00
4.25E+00	1.43E-02	2.84E+00
4.30E+00	1.43E-02	2.89E+00
4.35E+00	1.43E-02	2.94E+00
4.40E+00	1.43E-02	2.99E+00
4.45E+00	1.43E-02	3.03E+00
4.50E+00	1.43E-02	3.08E+00
4.55E+00	1.43E-02	3.13E+00
4.60E+00	1.43E-02	3.18E+00
4.65E+00	1.43E-02	3.23E+00
4.70E+00	1.44E-02	3.28E+00
4.75E+00	1.44E-02	3.33E+00
4.80E+00	1.44E-02	3.38E+00
4.85E+00	1.44E-02	3.43E+00
4.90E+00	1.44E-02	3.47E+00
4.95E+00	1.44E-02	3.52E+00
5.00E+00	1.44E-02	3.57E+00
5.05E+00	1.44E-02	3.62E+00
5.10E+00	1.44E-02	3.67E+00
5.15E+00	1.45E-02	3.72E+00
5.20E+00	1.45E-02	3.77E+00
5.25E+00	1.45E-02	3.82E+00
5.30E+00	1.45E-02	3.87E+00
5.35E+00	1.45E-02	3.91E+00
5.40E+00	1.45E-02	3.96E+00
5.45E+00	1.45E-02	4.01E+00
5.50E+00	1.45E-02	4.06E+00
5.55E+00	1.45E-02	4.11E+00
5.60E+00	1.46E-02	4.16E+00
5.65E+00	1.46E-02	4.21E+00
5.70E+00	1.46E-02	4.26E+00
5.75E+00	1.46E-02	4.31E+00
5.80E+00	1.46E-02	4.35E+00
5.85E+00	1.46E-02	4.40E+00
5.90E+00	1.46E-02	4.45E+00
5.95E+00	1.46E-02	4.50E+00
6.00E+00	1.46E-02	4.55E+00
6.05E+00	1.47E-02	4.60E+00
6.10E+00	1.47E-02	4.65E+00
6.15E+00	1.47E-02	4.70E+00
6.20E+00	1.47E-02	4.75E+00
6.25E+00	1.47E-02	4.80E+00
6.30E+00	1.47E-02	4.84E+00
6.35E+00	1.47E-02	4.89E+00
6.40E+00	1.47E-02	4.94E+00
6.45E+00	1.47E-02	4.99E+00
6.50E+00	1.47E-02	5.04E+00
6.55E+00	1.48E-02	5.09E+00
6.60E+00	1.48E-02	5.14E+00
6.65E+00	1.48E-02	5.19E+00
6.70E+00	1.48E-02	5.24E+00
6.75E+00	1.48E-02	5.28E+00
6.80E+00	1.48E-02	5.33E+00
6.85E+00	1.48E-02	5.38E+00
6.90E+00	1.48E-02	5.43E+00
6.95E+00	1.48E-02	5.48E+00
7.00E+00	1.49E-02	5.53E+00
7.05E+00	1.49E-02	5.58E+00
7.10E+00	1.49E-02	5.63E+00
7.15E+00	1.49E-02	5.68E+00
7.20E+00	1.49E-02	5.72E+00
7.25E+00	1.49E-02	5.77E+00
7.30E+00	1.49E-02	5.82E+00
7.35E+00	1.49E-02	5.87E+00
7.40E+00	1.49E-02	5.92E+00
7.45E+00	1.50E-02	5.97E+00
7.50E+00	1.50E-02	6.02E+00
7.55E+00	1.50E-02	6.07E+00
7.60E+00	1.50E-02	6.12E+00
7.65E+00	1.50E-02	6.16E+00
7.70E+00	1.50E-02	6.21E+00
7.75E+00	1.50E-02	6.26E+00
7.80E+00	1.50E-02	6.31E+00
7.85E+00	1.50E-02	6.36E+00
7.90E+00	1.51E-02	6.41E+00
7.95E+00	1.51E-02	6.46E+00
8.00E+00	1.51E-02	6.51E+00
8.05E+00	1.51E-02	6.56E+00
8.10E+00	1.51E-02	6.61E+00
8.15E+00	1.51E-02	6.65E+00
8.20E+00	1.51E-02	6.70E+00
8.25E+00	1.51E-02	6.75E+00
8.30E+00	1.51E-02	6.80E+00
8.35E+00	1.52E-02	6.85E+00
8.40E+00	1.52E-02	6.90E+00
8.45E+00	1.52E-02	6.95E+00
8.50E+00	1.52E-02	7.00E+00
8.55E+00	1.52E-02	7.05E+00
8.60E+00	1.52E-02	7.09E+00
8.65E+00	1.52E-02	7.14E+00
8.70E+00	1.52E-02	7.19E+00
8.75E+00	1.52E-02	7.24E+00
8.80E+00	1.53E-02	7.29E+00
8.85E+00	1.53E-02	7.34E+00
8.90E+00	1.53E-02	7.39E+00
8.95E+00	1.53E-02	7.44E+00
9.00E+00	1.53E-02	7.49E+00
9.05E+00	1.53E-02	7.53E+00
9.10E+00	1.53E-02	7.58E+00
9.15E+00	1.53E-02	7.63E+00
9.20E+00	1.53E-02	7.68E+00
9.25E+00	1.54E-02	7.73E+00
9.30E+00	1.54E-02	7.78E+00
9.35E+00	1.54E-02	7.83E+00
9.40E+00	1.54E-02	7.88E+00
9.45E+00	1.54E-02	7.93E+00
9.50E+00	1.54E-02	7.97E+00
9.55E+00	1.54E-02	8.02E+00
9.60E+00	1.54E-02	8.07E+00
9.65E+00	1.54E-02	8.12E+00
9.70E+00	1.55E-02	8.17E+00
9.75E+00	1.55E-02	8.22E+00
9.80E+00	1.55E-02	8.27E+00
9.85E+00	1.55E-02	8.32E+00
9.90E+00	1.55E-02	8.37E+00
9.95E+00	1.55E-02	8.41E+00
1.00E+01	1.55E-02	8.46E+00
