v1	V(n001)	I(R2)
0.000000000000000e+000	9.332992e+000	6.737459e-003
1.000000000000000e-001	9.387644e+000	6.185418e-003
2.000000000000000e-001	9.440142e+000	5.655138e-003
3.000000000000000e-001	9.490458e+000	5.146892e-003
4.000000000000000e-001	9.538566e+000	4.660951e-003
5.000000000000000e-001	9.584439e+000	4.197580e-003
6.000000000000000e-001	9.628053e+000	3.757047e-003
7.000000000000000e-001	9.669378e+000	3.339613e-003
7.999999999999999e-001	9.708392e+000	2.945535e-003
8.999999999999999e-001	9.745069e+000	2.575069e-003
9.999999999999999e-001	9.779382e+000	2.228465e-003
1.100000000000000e+000	9.811309e+000	1.905972e-003
1.200000000000000e+000	9.840825e+000	1.607832e-003
1.300000000000000e+000	9.867906e+000	1.334283e-003
1.400000000000000e+000	9.892529e+000	1.085559e-003
1.500000000000000e+000	9.914673e+000	8.618896e-004
1.600000000000000e+000	9.934314e+000	6.634974e-004
1.700000000000000e+000	9.951430e+000	4.906010e-004
1.800000000000001e+000	9.966002e+000	3.434127e-004
1.900000000000001e+000	9.978008e+000	2.221391e-004
2.000000000000000e+000	9.987429e+000	1.269803e-004
2.100000000000001e+000	9.994246e+000	5.813021e-005
2.200000000000001e+000	9.998438e+000	1.577577e-005
2.300000000000001e+000	9.999990e+000	9.698107e-008
2.400000000000001e+000	1.000000e+001	1.240046e-011
2.500000000000001e+000	1.000000e+001	1.250049e-011
2.600000000000001e+000	1.000000e+001	1.260049e-011
2.700000000000001e+000	1.000000e+001	1.270048e-011
2.800000000000001e+000	1.000000e+001	1.280046e-011
2.900000000000001e+000	1.000000e+001	1.290048e-011
3.000000000000001e+000	1.000000e+001	1.300049e-011
3.100000000000001e+000	1.000000e+001	1.310049e-011
3.200000000000002e+000	1.000000e+001	1.320047e-011
3.300000000000002e+000	1.000000e+001	1.330046e-011
3.400000000000002e+000	1.000000e+001	1.340050e-011
3.500000000000002e+000	1.000000e+001	1.350049e-011
3.600000000000002e+000	1.000000e+001	1.360047e-011
3.700000000000002e+000	1.000000e+001	1.370047e-011
3.800000000000002e+000	1.000000e+001	1.380048e-011
3.900000000000002e+000	1.000000e+001	1.390049e-011
4.000000000000002e+000	1.000000e+001	1.400047e-011
4.100000000000001e+000	1.000000e+001	1.410047e-011
4.200000000000001e+000	1.000000e+001	1.420047e-011
4.300000000000001e+000	1.000000e+001	1.430050e-011
4.400000000000000e+000	1.000000e+001	1.440048e-011
4.500000000000000e+000	1.000000e+001	1.450047e-011
4.600000000000000e+000	1.000000e+001	1.460047e-011
4.699999999999999e+000	1.000000e+001	1.470048e-011
4.799999999999999e+000	1.000000e+001	1.480048e-011
4.899999999999999e+000	1.000000e+001	1.490048e-011
5.000000000000000e+000	1.000000e+001	1.500047e-011
